
**** 04/28/19 12:38:17 ****** PSpice 17.2.0 (March 2016) ****** ID# 0 ********

 ** Profile: "SCHEMATIC1-bias"  [ E:\Desktop\Electricity-Circuit-Simulation\电子电路仿真\example\e18+\p108-2-4-1-pspicefiles\schemati


 ****     CIRCUIT DESCRIPTION


******************************************************************************




** Creating circuit file "bias.cir" 
** WARNING: THIS AUTOMATICALLY GENERATED FILE MAY BE OVERWRITTEN BY SUBSEQUENT SIMULATIONS

*Libraries: 
* Profile Libraries :
* Local Libraries :
* From [PSPICE NETLIST] section of D:\Cadence\SPB_Data\cdssetup\OrCAD_PSpice\17.2.0\PSpice.ini file:
.lib "nom.lib" 

*Analysis directives: 
.TRAN  0 2000u 0 1u 
.FOUR 10k 9 V([OUT]) 
.OPTIONS ADVCONV
.PROBE64 V(alias(*)) I(alias(*)) W(alias(*)) D(alias(*)) NOISE(alias(*)) 
.INC "..\SCHEMATIC1.net" 



**** INCLUDING SCHEMATIC1.net ****
* source P108-2-4-1
R_R1         N00247 N00279  5.1k  
R_R2         N00279 N00163  12k  
R_R3         N04032 0  2.3k  
R_R5         N00163 0  5k  
C_C1         N00247 OUT  10u   
C_C2         N002370 N00163  100u   
V_V1         N00279 0 12
X_Q1         N00247 N00163 N04032 awb2n3904 PARAMS:                            
+                 
R_R4         0 OUT  5.1k  
C_C3         0 N04032  100u   
V_V4         N00839 0  
+SIN 0 10m 10k 0 0 0
V_V3         N00839 N002370 0Vdc

**** RESUMING bias.cir ****
.END

**** 04/28/19 12:38:17 ****** PSpice 17.2.0 (March 2016) ****** ID# 0 ********

 ** Profile: "SCHEMATIC1-bias"  [ E:\Desktop\Electricity-Circuit-Simulation\电子电路仿真\example\e18+\p108-2-4-1-pspicefiles\schemati


 ****     BJT MODEL PARAMETERS


******************************************************************************




               X_Q1.model4     
               NPN             
       LEVEL    1            
          IS  172.800000E-18 
          EG    1.206        
          BF  254.395        
          NF     .85         
         VAF   10            
         IKF     .016374     
         ISE    9.974460E-15 
          NE    1.20863      
          BR     .1          
          NR     .891964     
         VAR    7.74046      
         IKR     .163741     
         ISC    9.974460E-15 
          NC    2.84343      
         ISS    0            
          RB   28.3394       
         RBM     .01         
         IRB     .01         
          RE    1.339110E-03 
          RC    2.08353      
         CJE    4.566140E-12 
         VJE     .4          
         MJE     .245712     
         CJC    3.724850E-12 
         VJC     .4          
         MJC     .236002     
        XCJC     .8          
         CJS    0            
         VJS     .75         
         MJS     .5          
          FC     .519152     
          TF  481.412000E-12 
         XTF     .9628       
         VTF    9.52193      
         ITF     .011333     
          TR    1.303990E-06 
         XTB    1.20888      
         XTI    1.34879      
          KF    0            
          AF    1            
          CN    2.42         
           D     .87         


**** 04/28/19 12:38:17 ****** PSpice 17.2.0 (March 2016) ****** ID# 0 ********

 ** Profile: "SCHEMATIC1-bias"  [ E:\Desktop\Electricity-Circuit-Simulation\电子电路仿真\example\e18+\p108-2-4-1-pspicefiles\schemati


 ****     INITIAL TRANSIENT SOLUTION       TEMPERATURE =   27.000 DEG C


******************************************************************************



 NODE   VOLTAGE     NODE   VOLTAGE     NODE   VOLTAGE     NODE   VOLTAGE


(  OUT)    0.0000  (N00163)    3.4776 (N00247)    5.8029 (N00279)   12.0000     

(N00839)    0.0000 (N04032)    2.8285 (N002370)    0.0000                   




    VOLTAGE SOURCE CURRENTS
    NAME         CURRENT

    V_V1        -1.925E-03
    V_V4         0.000E+00
    V_V3         0.000E+00

    TOTAL POWER DISSIPATION   2.31E-02  WATTS


**** 04/28/19 12:38:17 ****** PSpice 17.2.0 (March 2016) ****** ID# 0 ********

 ** Profile: "SCHEMATIC1-bias"  [ E:\Desktop\Electricity-Circuit-Simulation\电子电路仿真\example\e18+\p108-2-4-1-pspicefiles\schemati


 ****     FOURIER ANALYSIS                 TEMPERATURE =   27.000 DEG C


******************************************************************************



FOURIER COMPONENTS OF TRANSIENT RESPONSE V(OUT)



 DC COMPONENT =  -1.9954E-02

 HARMONIC   FREQUENCY     FOURIER     NORMALIZED     PHASE     NORMALIZED
    NO         (HZ)      COMPONENT     COMPONENT     (DEG)     PHASE (DEG)

     1    1.0000E+04   1.0149E+00   1.0000E+00  -1.7966E+02   0.0000E+00
     2    2.0000E+04   5.3631E-02   5.2841E-02   9.0959E+01   4.5027E+02
     3    3.0000E+04   1.3345E-03   1.3148E-03   1.7931E+02   7.1827E+02
     4    4.0000E+04   2.7994E-04   2.7582E-04   1.0638E+02   8.2500E+02
     5    5.0000E+04   5.1544E-05   5.0785E-05   1.7053E+02   1.0688E+03
     6    6.0000E+04   4.5197E-05   4.4532E-05   1.6698E+02   1.2449E+03
     7    7.0000E+04   5.0373E-05   4.9631E-05   1.7285E+02   1.4304E+03
     8    8.0000E+04   2.2496E-05   2.2165E-05   1.5017E+02   1.5874E+03
     9    9.0000E+04   4.0240E-05   3.9648E-05  -1.8000E+02   1.4369E+03


     TOTAL HARMONIC DISTORTION =   5.2858E+00 PERCENT


          JOB CONCLUDED

**** 04/28/19 12:38:17 ****** PSpice 17.2.0 (March 2016) ****** ID# 0 ********

 ** Profile: "SCHEMATIC1-bias"  [ E:\Desktop\Electricity-Circuit-Simulation\电子电路仿真\example\e18+\p108-2-4-1-pspicefiles\schemati


 ****     JOB STATISTICS SUMMARY


******************************************************************************



  Total job time (using Solver 1)   =         .13
