
**** 12/11/13 10:33:01 ******* PSpice 10.5.0 (Jan 2005) ******* ID# 2090008609 
 ** Profile: "SCHEMATIC1-test8-2"  [ C:\example\e23\test8-pspicefiles\schematic1\test8-2.sim ] 


 ****     CIRCUIT DESCRIPTION


******************************************************************************




** Creating circuit file "test8-2.cir" 
** WARNING: THIS AUTOMATICALLY GENERATED FILE MAY BE OVERWRITTEN BY SUBSEQUENT SIMULATIONS

*Libraries: 
* Profile Libraries :
* Local Libraries :
* From [PSPICE NETLIST] section of C:\OrCAD\OrCAD_10.5\tools\PSpice\PSpice.ini file:
.lib "nom.lib" 

*Analysis directives: 
.TRAN  0 10s 0 1m 
.PROBE V(alias(*)) I(alias(*)) W(alias(*)) D(alias(*)) NOISE(alias(*)) 
.INC "..\SCHEMATIC1.net" 



**** INCLUDING SCHEMATIC1.net ****
* source TEST8
V_V13         N11552 0 15
V_V14         IN 0  
+PWL 0 0 1 15 2 -15 3 15 
R_R7         0 N10412  1k  
V_V12         N11195 0 -15
R_R9         IN N10758  1k  
X_U1C         N10412 N10758 N11552 N11195 OUT LM324
R_R8         N10412 OUT  10k  

**** RESUMING test8-2.cir ****
.END

**** 12/11/13 10:33:01 ******* PSpice 10.5.0 (Jan 2005) ******* ID# 2090008609 
 ** Profile: "SCHEMATIC1-test8-2"  [ C:\example\e23\test8-pspicefiles\schematic1\test8-2.sim ] 


 ****     Diode MODEL PARAMETERS


******************************************************************************




               X_U1C.dx        X_U1C.dy        
          IS  800.000000E-18  800.000000E-18 
          RS    1               1.000000E-03 
         CJO                   10.000000E-12 


**** 12/11/13 10:33:01 ******* PSpice 10.5.0 (Jan 2005) ******* ID# 2090008609 
 ** Profile: "SCHEMATIC1-test8-2"  [ C:\example\e23\test8-pspicefiles\schematic1\test8-2.sim ] 


 ****     BJT MODEL PARAMETERS


******************************************************************************




               X_U1C.qx        
               PNP             
       LEVEL    1            
          IS  800.000000E-18 
          BF  166.7          
          NF    1            
          BR    1            
          NR    1            
         ISS    0            
          RE    0            
          RC    0            
         CJE    0            
         VJE     .75         
         CJC    0            
         VJC     .75         
         MJC     .33         
        XCJC    1            
         CJS    0            
         VJS     .75         
          KF    0            
          AF    1            
          CN    2.2          
           D     .52         


**** 12/11/13 10:33:01 ******* PSpice 10.5.0 (Jan 2005) ******* ID# 2090008609 
 ** Profile: "SCHEMATIC1-test8-2"  [ C:\example\e23\test8-pspicefiles\schematic1\test8-2.sim ] 


 ****     Current Controlled Switch MODEL PARAMETERS


******************************************************************************




               X_U1C.sw2       X_U1C.sw1       X_U1C.sw3       X_U1C.sw4       
         RON    1               1               1               1            
        ROFF   10.000000E+06   10.000000E+06   10.000000E+06   10.000000E+06 
         ION    0              -1.000000E-06   -1.000000E-06    0            
        IOFF   -1.000000E-06    0               0              -1.000000E-06 


**** 12/11/13 10:33:01 ******* PSpice 10.5.0 (Jan 2005) ******* ID# 2090008609 
 ** Profile: "SCHEMATIC1-test8-2"  [ C:\example\e23\test8-pspicefiles\schematic1\test8-2.sim ] 


 ****     INITIAL TRANSIENT SOLUTION       TEMPERATURE =   27.000 DEG C


******************************************************************************



 NODE   VOLTAGE     NODE   VOLTAGE     NODE   VOLTAGE     NODE   VOLTAGE


(   IN)    0.0000  (  OUT)     .0022  (N10412) 237.5E-06 (N10758) 44.95E-06     

(N11195)  -15.0000 (N11552)   15.0000 (X_U1C.6)-411.3E-09                       

(X_U1C.7)     .0022                   (X_U1C.8)     .0022                       

(X_U1C.9)    0.0000                   (X_U1C.a)   15.0000                       

(X_U1C.b)-1.693E-06                   (X_U1C.10)     .6078                      

(X_U1C.11)  -14.9600                  (X_U1C.12)  -14.9600                      

(X_U1C.13)     .5939                  (X_U1C.14)     .5940                      

(X_U1C.53)   13.5000                  (X_U1C.54)  -14.1780                      

(X_U1C.90) 192.8E-06                  (X_U1C.91)   40.0000                      

(X_U1C.92)  -40.0000                  (X_U1C.99)    0.0000                  




    VOLTAGE SOURCE CURRENTS
    NAME         CURRENT

    V_V13       -3.320E-03
    V_V14        4.495E-08
    V_V12        3.320E-03
    X_U1C.vb    -4.113E-12
    X_U1C.vc     1.350E-11
    X_U1C.ve     1.455E-11
    X_U1C.vlim   1.928E-07
    X_U1C.vlp   -4.000E-11
    X_U1C.vln   -4.000E-11

    TOTAL POWER DISSIPATION   9.96E-02  WATTS



          JOB CONCLUDED

**** 12/11/13 10:33:01 ******* PSpice 10.5.0 (Jan 2005) ******* ID# 2090008609 
 ** Profile: "SCHEMATIC1-test8-2"  [ C:\example\e23\test8-pspicefiles\schematic1\test8-2.sim ] 


 ****     JOB STATISTICS SUMMARY


******************************************************************************



  Total job time (using Solver 1)   =        1.34
