
**** 11/17/13 11:27:59 ******* PSpice 10.5.0 (Jan 2005) ******* ID# 2090008609 
 ** Profile: "SCHEMATIC1-bias"  [ C:\example\e16\p108-2-4-1-pspicefiles\schematic1\bias.sim ] 


 ****     CIRCUIT DESCRIPTION


******************************************************************************




** Creating circuit file "bias.cir" 
** WARNING: THIS AUTOMATICALLY GENERATED FILE MAY BE OVERWRITTEN BY SUBSEQUENT SIMULATIONS

*Libraries: 
* Profile Libraries :
* Local Libraries :
* From [PSPICE NETLIST] section of C:\OrCAD\OrCAD_10.5\tools\PSpice\PSpice.ini file:
.lib "nom.lib" 

*Analysis directives: 
.AC DEC 1000 1 100meg
.PROBE V(alias(*)) I(alias(*)) W(alias(*)) D(alias(*)) NOISE(alias(*)) 
.INC "..\SCHEMATIC1.net" 



**** INCLUDING SCHEMATIC1.net ****
* source P108-2-4-1
V_V4         IN 0 DC 0Vdc AC 10mVac 
R_R1         N00247 N00279  5.1k  
R_R2         N00279 N00163  12k  
R_R3         N04032 0  2.3k  
C_C3         0 N04032  100u   
X_Q1         N00247 N00163 N04032 awb2n3904 PARAMS:                            
+                 
R_R5         N00163 0  5k  
V_V1         N00279 0 12
V_V3         IN N002370 0Vdc
R_R4         0 OUT  5.1k  
C_C1         N00247 OUT  10u   
C_C2         N002370 N00163  10u   

**** RESUMING bias.cir ****
.END

**** 11/17/13 11:27:59 ******* PSpice 10.5.0 (Jan 2005) ******* ID# 2090008609 
 ** Profile: "SCHEMATIC1-bias"  [ C:\example\e16\p108-2-4-1-pspicefiles\schematic1\bias.sim ] 


 ****     BJT MODEL PARAMETERS


******************************************************************************




               X_Q1.model4     
               NPN             
       LEVEL    1            
          IS  172.800000E-18 
          EG    1.206        
          BF  254.395        
          NF     .85         
         VAF   10            
         IKF     .016374     
         ISE    9.974460E-15 
          NE    1.20863      
          BR     .1          
          NR     .891964     
         VAR    7.74046      
         IKR     .163741     
         ISC    9.974460E-15 
          NC    2.84343      
         ISS    0            
          RB   28.3394       
         RBM     .01         
         IRB     .01         
          RE    1.339110E-03 
          RC    2.08353      
         CJE    4.566140E-12 
         VJE     .4          
         MJE     .245712     
         CJC    3.724850E-12 
         VJC     .4          
         MJC     .236002     
        XCJC     .8          
         CJS    0            
         VJS     .75         
         MJS     .5          
          FC     .519152     
          TF  481.412000E-12 
         XTF     .9628       
         VTF    9.52193      
         ITF     .011333     
          TR    1.303990E-06 
         XTB    1.20888      
         XTI    1.34879      
          KF    0            
          AF    1            
          CN    2.42         
           D     .87         


**** 11/17/13 11:27:59 ******* PSpice 10.5.0 (Jan 2005) ******* ID# 2090008609 
 ** Profile: "SCHEMATIC1-bias"  [ C:\example\e16\p108-2-4-1-pspicefiles\schematic1\bias.sim ] 


 ****     SMALL SIGNAL BIAS SOLUTION       TEMPERATURE =   27.000 DEG C


******************************************************************************



 NODE   VOLTAGE     NODE   VOLTAGE     NODE   VOLTAGE     NODE   VOLTAGE


(   IN)    0.0000  (  OUT)    0.0000  (N00163)    3.4776 (N00247)    5.8029     

(N00279)   12.0000 (N04032)    2.8285 (N002370)    0.0000                   




    VOLTAGE SOURCE CURRENTS
    NAME         CURRENT

    V_V4         0.000E+00
    V_V1        -1.925E-03
    V_V3         0.000E+00

    TOTAL POWER DISSIPATION   2.31E-02  WATTS



          JOB CONCLUDED

**** 11/17/13 11:27:59 ******* PSpice 10.5.0 (Jan 2005) ******* ID# 2090008609 
 ** Profile: "SCHEMATIC1-bias"  [ C:\example\e16\p108-2-4-1-pspicefiles\schematic1\bias.sim ] 


 ****     JOB STATISTICS SUMMARY


******************************************************************************



  Total job time (using Solver 1)   =         .36
