
**** 04/16/19 17:14:05 ******* PSpice 10.5.0 (Jan 2005) ******* ID# 0 ********

 ** Profile: "SCHEMATIC1-111"  [ C:\Users\DPL\Desktop\project3\project3-PSpiceFiles\SCHEMATIC1\111.sim ] 


 ****     CIRCUIT DESCRIPTION


******************************************************************************




** Creating circuit file "111.cir" 
** WARNING: THIS AUTOMATICALLY GENERATED FILE MAY BE OVERWRITTEN BY SUBSEQUENT SIMULATIONS

*Libraries: 
* Profile Libraries :
* Local Libraries :
* From [PSPICE NETLIST] section of C:\OrCAD\OrCAD_10.5\tools\PSpice\PSpice.ini file:
.lib "nom.lib" 

*Analysis directives: 
.AC DEC 1k 1 100000k
.STEP DEC PARAM Cval 1n 10u 1 
.PROBE V(alias(*)) I(alias(*)) W(alias(*)) D(alias(*)) NOISE(alias(*)) 
.INC "..\SCHEMATIC1.net" 



**** INCLUDING SCHEMATIC1.net ****
* source PROJECT3
V_V1         N01730 0 DC 0Vdc AC 1Vac 
R_R1         N01730 N00471  999k  
R_R2         N004201 N00471  1k  
C_C1         N004201 0  {Cval} IC=10 
.PARAM  Cval=1n

**** RESUMING 111.cir ****
.END

**** 04/16/19 17:14:05 ******* PSpice 10.5.0 (Jan 2005) ******* ID# 0 ********

 ** Profile: "SCHEMATIC1-111"  [ C:\Users\DPL\Desktop\project3\project3-PSpiceFiles\SCHEMATIC1\111.sim ] 


 ****     SMALL SIGNAL BIAS SOLUTION       TEMPERATURE =   27.000 DEG C

 ****     CURRENT STEP                     PARAM CVAL =    1.0000E-09


******************************************************************************



 NODE   VOLTAGE     NODE   VOLTAGE     NODE   VOLTAGE     NODE   VOLTAGE


(N00471)    9.9900 (N01730)    0.0000 (N004201)   10.0000                   




    VOLTAGE SOURCE CURRENTS
    NAME         CURRENT

    V_V1         1.000E-05

    TOTAL POWER DISSIPATION   0.00E+00  WATTS


**** 04/16/19 17:14:05 ******* PSpice 10.5.0 (Jan 2005) ******* ID# 0 ********

 ** Profile: "SCHEMATIC1-111"  [ C:\Users\DPL\Desktop\project3\project3-PSpiceFiles\SCHEMATIC1\111.sim ] 


 ****     SMALL SIGNAL BIAS SOLUTION       TEMPERATURE =   27.000 DEG C

 ****     CURRENT STEP                     PARAM CVAL =   10.0000E-09


******************************************************************************



 NODE   VOLTAGE     NODE   VOLTAGE     NODE   VOLTAGE     NODE   VOLTAGE


(N00471)    9.9900 (N01730)    0.0000 (N004201)   10.0000                   




    VOLTAGE SOURCE CURRENTS
    NAME         CURRENT

    V_V1         1.000E-05

    TOTAL POWER DISSIPATION   0.00E+00  WATTS


**** 04/16/19 17:14:05 ******* PSpice 10.5.0 (Jan 2005) ******* ID# 0 ********

 ** Profile: "SCHEMATIC1-111"  [ C:\Users\DPL\Desktop\project3\project3-PSpiceFiles\SCHEMATIC1\111.sim ] 


 ****     SMALL SIGNAL BIAS SOLUTION       TEMPERATURE =   27.000 DEG C

 ****     CURRENT STEP                     PARAM CVAL =  100.0000E-09


******************************************************************************



 NODE   VOLTAGE     NODE   VOLTAGE     NODE   VOLTAGE     NODE   VOLTAGE


(N00471)    9.9900 (N01730)    0.0000 (N004201)   10.0000                   




    VOLTAGE SOURCE CURRENTS
    NAME         CURRENT

    V_V1         1.000E-05

    TOTAL POWER DISSIPATION   0.00E+00  WATTS


**** 04/16/19 17:14:05 ******* PSpice 10.5.0 (Jan 2005) ******* ID# 0 ********

 ** Profile: "SCHEMATIC1-111"  [ C:\Users\DPL\Desktop\project3\project3-PSpiceFiles\SCHEMATIC1\111.sim ] 


 ****     SMALL SIGNAL BIAS SOLUTION       TEMPERATURE =   27.000 DEG C

 ****     CURRENT STEP                     PARAM CVAL =    1.0000E-06


******************************************************************************



 NODE   VOLTAGE     NODE   VOLTAGE     NODE   VOLTAGE     NODE   VOLTAGE


(N00471)    9.9900 (N01730)    0.0000 (N004201)   10.0000                   




    VOLTAGE SOURCE CURRENTS
    NAME         CURRENT

    V_V1         1.000E-05

    TOTAL POWER DISSIPATION   0.00E+00  WATTS


**** 04/16/19 17:14:05 ******* PSpice 10.5.0 (Jan 2005) ******* ID# 0 ********

 ** Profile: "SCHEMATIC1-111"  [ C:\Users\DPL\Desktop\project3\project3-PSpiceFiles\SCHEMATIC1\111.sim ] 


 ****     SMALL SIGNAL BIAS SOLUTION       TEMPERATURE =   27.000 DEG C

 ****     CURRENT STEP                     PARAM CVAL =   10.0000E-06


******************************************************************************



 NODE   VOLTAGE     NODE   VOLTAGE     NODE   VOLTAGE     NODE   VOLTAGE


(N00471)    9.9900 (N01730)    0.0000 (N004201)   10.0000                   




    VOLTAGE SOURCE CURRENTS
    NAME         CURRENT

    V_V1         1.000E-05

    TOTAL POWER DISSIPATION   0.00E+00  WATTS



          JOB CONCLUDED

**** 04/16/19 17:14:05 ******* PSpice 10.5.0 (Jan 2005) ******* ID# 0 ********

 ** Profile: "SCHEMATIC1-111"  [ C:\Users\DPL\Desktop\project3\project3-PSpiceFiles\SCHEMATIC1\111.sim ] 


 ****     JOB STATISTICS SUMMARY

 ****     CURRENT STEP                     PARAM CVAL =   10.0000E-06


******************************************************************************



  Total job time (using Solver 1)   =         .89
