
**** 12/04/13 15:05:32 ******* PSpice 10.5.0 (Jan 2005) ******* ID# 2090008609 
 ** Profile: "SCHEMATIC1-bias"  [ C:\example\e22\chap7 7-4-7-pspicefiles\schematic1\bias.sim ] 


 ****     CIRCUIT DESCRIPTION


******************************************************************************




** Creating circuit file "bias.cir" 
** WARNING: THIS AUTOMATICALLY GENERATED FILE MAY BE OVERWRITTEN BY SUBSEQUENT SIMULATIONS

*Libraries: 
* Profile Libraries :
* Local Libraries :
* From [PSPICE NETLIST] section of C:\OrCAD\OrCAD_10.5\tools\PSpice\PSpice.ini file:
.lib "nom.lib" 

*Analysis directives: 
.AC DEC 1000 1 1meg
.PROBE V(alias(*)) I(alias(*)) W(alias(*)) D(alias(*)) NOISE(alias(*)) 
.INC "..\SCHEMATIC1.net" 



**** INCLUDING SCHEMATIC1.net ****
* source CHAP7 7-4-7
C_C1         0 N02022  100n  
R_R3         N02022 N02008  50k  
R_R4         N018060 N02022  50k  
C_C2         0 N02008  100n  
V_V2         N018562 0 15Vdc
V_V1         N018060 0 DC 0Vdc AC 1Vac 
V_V3         N018563 0 -15Vdc
R_R1         0 N01900  100k  
X_U1A         N02008 N01900 N018562 N018563 N01926 LM358
R_R2         N01926 N01900  100k  

**** RESUMING bias.cir ****
.END

**** 12/04/13 15:05:32 ******* PSpice 10.5.0 (Jan 2005) ******* ID# 2090008609 
 ** Profile: "SCHEMATIC1-bias"  [ C:\example\e22\chap7 7-4-7-pspicefiles\schematic1\bias.sim ] 


 ****     Diode MODEL PARAMETERS


******************************************************************************




               X_U1A.x_lm358.dx 
          IS  800.000000E-18 
          RS    1            


               X_U1A.x_lm358.dy 
          IS  800.000000E-18 
          RS    1.000000E-03 
         CJO   10.000000E-12 


**** 12/04/13 15:05:32 ******* PSpice 10.5.0 (Jan 2005) ******* ID# 2090008609 
 ** Profile: "SCHEMATIC1-bias"  [ C:\example\e22\chap7 7-4-7-pspicefiles\schematic1\bias.sim ] 


 ****     BJT MODEL PARAMETERS


******************************************************************************




               X_U1A.x_lm358.qx 
               PNP             
       LEVEL    1            
          IS  800.000000E-18 
          BF  166.7          
          NF    1            
          BR    1            
          NR    1            
         ISS    0            
          RE    0            
          RC    0            
         CJE    0            
         VJE     .75         
         CJC    0            
         VJC     .75         
         MJC     .33         
        XCJC    1            
         CJS    0            
         VJS     .75         
          KF    0            
          AF    1            
          CN    2.2          
           D     .52         


**** 12/04/13 15:05:32 ******* PSpice 10.5.0 (Jan 2005) ******* ID# 2090008609 
 ** Profile: "SCHEMATIC1-bias"  [ C:\example\e22\chap7 7-4-7-pspicefiles\schematic1\bias.sim ] 


 ****     Current Controlled Switch MODEL PARAMETERS


******************************************************************************




               X_U1A.x_lm358.sw2 
         RON    1            
        ROFF   10.000000E+06 
         ION    0            
        IOFF   -1.000000E-06 


               X_U1A.x_lm358.sw1 
         RON    1            
        ROFF   10.000000E+06 
         ION   -1.000000E-06 
        IOFF    0            


               X_U1A.x_lm358.sw3 
         RON    1            
        ROFF   10.000000E+06 
         ION   -1.000000E-06 
        IOFF    0            


               X_U1A.x_lm358.sw4 
         RON    1            
        ROFF   10.000000E+06 
         ION    0            
        IOFF   -1.000000E-06 


**** 12/04/13 15:05:32 ******* PSpice 10.5.0 (Jan 2005) ******* ID# 2090008609 
 ** Profile: "SCHEMATIC1-bias"  [ C:\example\e22\chap7 7-4-7-pspicefiles\schematic1\bias.sim ] 


 ****     SMALL SIGNAL BIAS SOLUTION       TEMPERATURE =   27.000 DEG C


******************************************************************************



 NODE   VOLTAGE     NODE   VOLTAGE     NODE   VOLTAGE     NODE   VOLTAGE


(N01900)     .0043 (N01926)     .0041 (N02008)     .0045 (N02022)     .0022     

(N018060)    0.0000                   (N018562)   15.0000                       

(N018563)  -15.0000                   (X_U1A.x_lm358.6)-766.2E-09               

(X_U1A.x_lm358.7)     .0041           (X_U1A.x_lm358.8)     .0041               

(X_U1A.x_lm358.9)    0.0000           (X_U1A.x_lm358.a)   15.0000               

(X_U1A.x_lm358.b)-1.499E-06           (X_U1A.x_lm358.10)     .6121              

(X_U1A.x_lm358.11)  -14.9600          (X_U1A.x_lm358.12)  -14.9600              

(X_U1A.x_lm358.13)     .5981          (X_U1A.x_lm358.14)     .5982              

(X_U1A.x_lm358.53)   13.5000          (X_U1A.x_lm358.54)  -14.1780              

(X_U1A.x_lm358.90)-2.158E-06          (X_U1A.x_lm358.91)   40.0000              

(X_U1A.x_lm358.92)  -40.0000          (X_U1A.x_lm358.99)    0.0000          




    VOLTAGE SOURCE CURRENTS
    NAME         CURRENT

    V_V2        -3.320E-03
    V_V1         4.473E-08
    V_V3         3.320E-03
    X_U1A.x_lm358.vb  -7.662E-12
    X_U1A.x_lm358.vc   1.350E-11
    X_U1A.x_lm358.ve   1.456E-11
    X_U1A.x_lm358.vlim  -2.158E-09
    X_U1A.x_lm358.vlp  -4.000E-11
    X_U1A.x_lm358.vln  -4.000E-11

    TOTAL POWER DISSIPATION   9.96E-02  WATTS



          JOB CONCLUDED

**** 12/04/13 15:05:32 ******* PSpice 10.5.0 (Jan 2005) ******* ID# 2090008609 
 ** Profile: "SCHEMATIC1-bias"  [ C:\example\e22\chap7 7-4-7-pspicefiles\schematic1\bias.sim ] 


 ****     JOB STATISTICS SUMMARY


******************************************************************************



  Total job time (using Solver 1)   =         .64
